ls
mkdir teste
ls
ls teste/
cd teste/
ls
 i2cdetect -y -r 2 
ls
chmod +x lcd
./lcd 
ls /dev/i2c*
ls
rm lcd 
ls
chmod +x lcd_static 
./lcd_static 
ls
chmod +x teste2_static
./teste2_static 
ls
cd teste/
ls
./teste2_static 
i2cdetect -y 2
 i2cdetect -y -r 2 
i2cget -y 2 0x27 0x40
i2cget -y 2 0x27 0x41
i2cget -y 2 0x27 0x08
 i2cdetect -y -r 2 
i2cset -y 2 0x27 0x69
i2cset -y 2 0x27 0x6D
i2cset -y 2 0x27 0x69 
i2cset -y 2 0x27 0x19 
i2cset -y 2 0x27 0x1D
i2cset -y 2 0x27 0x19
i2cset -y 2 0x27 0x03
usleep 4500
i2cset -y 2 0x27 0x03
usleep 4500
i2cset -y 2 0x27 0x03
usleep 4500
i2cset -y 2 0x27 0x02
i2cset -y 2 0x27 0x28 
i2cset -y 2 0x27 0x08
i2cset -y 2 0x27 0x01
i2cset -y 2 0x27 0x06
i2cset -y 2 0x27 0x0C
i2cset -y 2 0x27 0x61 
i2cset -y 2 0x27 0x08
i2cset -y 2 0x27 0x62
i2cset -y 2 0x27 0x08
i2cset -y 2 0x27 0x03
i2cset -y 2 0x27 0x02
i2cset -y 2 0x27 0x28
i2cset -y 2 0x27 0x08
i2cset -y 2 0x27 0x01
i2cset -y 2 0x27 0x06
i2cset -y 2 0x27 0x0c
i2cset -y 2 0x27 0x62
i2cset -y 2 0x27 0x63
i2cset -y 2 0x27 0x08
i2cset -y 2 0x27 0x03
i2cset -y 2 0x27 0x02
i2cset -y 2 0x27 0x28
i2cset -y 2 0x27 0x08
i2cset -y 2 0x27 0x01
i2cset -y 2 0x27 0x06
i2cset -y 2 0x27 0x0c
i2cset -y 2 0x27 0x40
i2cset -y 2 0x27 0x08
i2cset -y 2 0x27 0x01
i2cset -y 2 0x27 0x00
i2cset -y 2 0x27 0x08
i2cset -y 2 0x27 0x3f
ls
cd teste/
ls
./teste2_static 
ls
cd teste/
ls
./teste2_static 
i2cset -y 0x27 0x08
i2cset -y 2 0x27 0x08
i2cset -y 2 0x27 0x00
i2cset -y 2 0x27 0x08
i2cset -y 2 0x27 0x01
i2cset -y 2 0x27 0x08
i2cset -y 2 0x27 0x00
i2cset -y 2 0x27 0x01
i2cset -y 2 0x27 0x08
i2cset -y 2 0x27 0x01
i2cset -y 2 0x27 0x08
i2cdump -y 2 0x27
i2cdump -y 2 0x27 0x00
i2cset -y 2 0x27 0x00
i2cset -y 2 0x27 0x08
i2cget -y 2 0x27 0x08
ls
./teste2_static 
i2cdetect -y -r 2 
ls
./teste2_static 
ls
cd teste/
ls
i2cdetect 2 -y -r 
i2cdetect -y -r 2
ls
chmod +x lcd_ofc_static 
./lcd_ofc_static 
ls
./lcd_ofc_static 
i2cdump -y 2 0x27
i2cset -y 2 0x27 0x00 0x00
i2cset -y 2 0x27 0x08
ls
cd teste/
ls
./lcd_ofc_static 
i2cdetect -l
i2cdetect -y -r 2
ls
./lcd_ofc_static 
